  can0  144   [8]  C0 00 00 16 AF A4 A0 00
  can0  152   [8]  F0 8C 00 00 00 00 08 8C
  can0  282   [8]  EE 30 FA 80 80 01 21 00
  can0  018   [8]  0E 43 70 08 00 00 00 E9
  can0  280   [8]  00 09 00 00 00 00 00 00
  can0  0D0   [8]  AB F1 01 00 00 00 FF 02
  can0  152   [8]  F0 DC 00 00 00 00 08 8C
  can0  140   [8]  00 0D 00 40 00 00 13 01
  can0  141   [8]  84 26 A3 29 00 80 BF 00
  can0  142   [8]  84 26 00 00 00 00 00 00
  can0  144   [8]  C0 00 00 16 AF A4 A0 00
  can0  018   [8]  0E 43 70 0C 00 00 00 ED
  can0  280   [8]  00 0E 00 00 00 00 00 00
  can0  0D0   [8]  AB F1 01 00 00 00 FF 02
  can0  0D1   [4]  00 00 00 00
  can0  152   [8]  F0 2C 00 00 00 00 08 8C
  can0  140   [8]  00 07 00 40 00 00 13 01
  can0  141   [8]  84 26 A3 29 00 80 BF 00
  can0  142   [8]  84 26 00 00 00 00 00 00
  can0  144   [8]  C0 00 00 16 AF A4 A0 00
  can0  3D1   [8]  91 10 00 00 00 00 00 00
  can0  018   [8]  0E 43 70 00 00 00 00 E1
  can0  280   [8]  00 03 00 00 00 00 00 00
  can0  0D0   [8]  AB F1 00 00 00 00 00 02
  can0  140   [8]  00 01 00 40 00 00 13 01
  can0  141   [8]  84 26 A3 29 00 80 BF 00
  can0  142   [8]  84 26 00 00 00 00 00 00
  can0  144   [8]  C0 00 00 16 AF A4 A0 00
  can0  152   [8]  F0 7C 00 00 00 00 08 8C
  can0  282   [8]  EE 80 FA 80 80 01 21 00
  can0  018   [8]  0E 43 70 04 00 00 00 E5
  can0  280   [8]  00 08 00 00 00 00 00 00
  can0  0D0   [8]  AB F1 01 00 00 00 00 02
  can0  140   [8]  00 0B 00 40 00 00 13 01
  can0  141   [8]  84 26 A3 29 00 80 BF 00
  can0  142   [8]  84 26 00 00 00 00 00 00
  can0  144   [8]  C0 00 00 16 AF A4 A0 00
  can0  152   [8]  F0 CC 00 00 00 00 08 8C
  can0  018   [8]  0E 43 70 08 00 00 00 E9
  can0  280   [8]  00 0D 00 00 00 00 00 00
  can0  0D0   [8]  AB F1 00 00 00 00 FF 02
  can0  0D1   [4]  00 00 00 00
  can0  140   [8]  00 05 00 40 00 00 13 01
  can0  141   [8]  84 26 A3 29 00 80 BF 00
  can0  142   [8]  84 26 00 00 00 00 00 00
  can0  144   [8]  C0 00 00 16 AF A4 A0 00
  can0  152   [8]  F0 1C 00 00 00 00 08 8C
  can0  018   [8]  0E 43 70 0C 00 00 00 ED
  can0  280   [8]  00 02 00 00 00 00 00 00
  can0  0D0   [8]  AB F1 00 00 00 00 FF 02
  can0  0D1   [4]  00 00 00 00
  can0  140   [8]  00 0F 00 40 00 00 13 01
  can0  141   [8]  84 26 A3 29 00 80 BF 00
  can0  142   [8]  84 26 00 00 00 00 00 00
  can0  144   [8]  C0 00 00 16 AF A4 A0 00
  can0  152   [8]  F0 6C 00 00 00 00 08 8C
  can0  282   [8]  EE D0 FA 80 80 01 21 00
  can0  018   [8]  0E 43 70 00 00 00 00 E1
  can0  46C   [8]  40 02 00 00 00 00 00 00
  can0  280   [8]  00 07 00 00 00 00 00 00
  can0  370   [8]  00 00 23 01 00 0D 00 00
  can0  140   [8]  00 09 00 40 00 00 13 01
  can0  141   [8]  84 26 A3 29 00 80 BF 00
  can0  142   [8]  84 26 00 00 00 00 00 00
  can0  144   [8]  C0 00 00 16 AF A4 A0 00
  can0  440   [8]  42 02 00 00 00 00 00 00
  can0  152   [8]  F0 BC 00 00 00 00 08 8C
  can0  018   [8]  0E 43 70 04 00 00 00 E5
  can0  280   [8]  00 0C 00 00 00 00 00 00
  can0  370   [8]  00 00 23 01 00 0F 00 00
  can0  140   [8]  00 03 00 40 00 00 13 01
  can0  141   [8]  84 26 A3 29 00 80 BF 00
  can0  142   [8]  84 26 00 00 00 00 00 00
  can0  144   [8]  C0 00 00 16 AF A4 A0 00
  can0  152   [8]  F0 0C 00 00 00 00 08 8C
  can0  3D1   [8]  8F 10 00 00 00 00 00 00
  can0  018   [8]  0E 43 70 08 00 00 00 E9
  can0  280   [8]  00 01 00 00 00 00 00 00
  can0  140   [8]  00 0D 00 40 00 00 13 01
  can0  141   [8]  84 26 A3 29 00 80 BF 00
  can0  142   [8]  84 26 00 00 00 00 00 00
  can0  144   [8]  C0 00 00 16 AF A4 A0 00
  can0  152   [8]  F0 5C 00 00 00 00 08 8C
  can0  370   [8]  00 00 23 01 00 01 00 00
  can0  282   [8]  EE 20 FA 80 80 01 21 00
  can0  018   [8]  0E 43 70 0C 00 00 00 ED
  can0  280   [8]  00 06 00 00 00 00 00 00
  can0  140   [8]  00 07 00 40 00 00 13 01
  can0  141   [8]  84 26 A3 29 00 80 BF 00
  can0  142   [8]  84 26 00 00 00 00 00 00
  can0  144   [8]  C0 00 00 16 AF A4 A0 00
  can0  152   [8]  F0 AC 00 00 00 00 08 8C
  can0  370   [8]  00 00 23 01 00 03 00 00
  can0  018   [8]  0E 43 70 00 00 00 00 E1
  can0  280   [8]  00 0B 00 00 00 00 00 00
  can0  0D0   [8]  AB F1 01 00 00 00 FF 02
  can0  140   [8]  00 01 00 40 00 00 13 01
  can0  141   [8]  84 26 A3 29 00 80 BF 00
  can0  142   [8]  84 26 00 00 00 00 00 00
  can0  144   [8]  C0 00 00 16 AF A4 A0 00
  can0  152   [8]  F0 FC 00 00 00 00 08 8C
  can0  370   [8]  00 00 23 01 00 05 00 00
  can0  018   [8]  0E 43 70 04 00 00 00 E5
  can0  280   [8]  00 00 00 00 00 00 00 00
  can0  0D0   [8]  AB F1 00 00 00 00 FF 02
  can0  140   [8]  00 0B 00 40 00 00 13 01
  can0  141   [8]  84 26 A3 29 00 80 BF 00
  can0  142   [8]  84 26 00 00 00 00 00 00
  can0  144   [8]  C0 00 00 16 AF A4 A0 00
  can0  152   [8]  F0 4C 00 00 00 00 08 8C
  can0  282   [8]  EE 70 FA 80 80 01 21 00
  can0  370   [8]  00 00 23 01 00 07 00 00
  can0  018   [8]  0E 43 70 08 00 00 00 E9
  can0  280   [8]  00 05 00 00 00 00 00 00
  can0  140   [8]  00 05 00 40 00 00 13 01
  can0  141   [8]  84 26 A3 29 00 80 BF 00
  can0  142   [8]  84 26 00 00 00 00 00 00
  can0  144   [8]  C0 00 00 16 AF A4 A0 00
  can0  152   [8]  F0 9C 00 00 00 00 08 8C
  can0  370   [8]  00 00 23 01 00 09 00 00
  can0  018   [8]  0E 43 70 0C 00 00 00 ED
  can0  280   [8]  00 0A 00 00 00 00 00 00
  can0  0D0   [8]  AB F1 00 00 00 00 FF 02
  can0  140   [8]  00 0F 00 40 00 00 13 01
  can0  141   [8]  84 26 A3 29 00 80 BF 00
  can0  142   [8]  84 26 00 00 00 00 00 00
  can0  144   [8]  C0 00 00 16 AF A4 A0 00
  can0  152   [8]  F0 EC 00 00 00 00 08 8C
  can0  3D1   [8]  8F 10 00 00 00 00 00 00
  can0  018   [8]  0E 43 70 00 00 00 00 E1
  can0  370   [8]  00 00 23 01 00 0B 00 00
  can0  280   [8]  00 0F 00 00 00 00 00 00
  can0  140   [8]  00 09 00 40 00 00 13 01
  can0  141   [8]  84 26 A3 29 00 80 BF 00
  can0  142   [8]  84 26 00 00 00 00 00 00
  can0  144   [8]  C0 00 00 16 AF A4 A0 00
  can0  152   [8]  F0 3C 00 00 00 00 08 8C
  can0  282   [8]  EE C0 FA 80 80 01 21 00
  can0  018   [8]  0E 43 70 04 00 00 00 E5
  can0  370   [8]  00 00 23 01 00 0D 00 00
  can0  280   [8]  00 04 00 00 00 00 00 00
  can0  140   [8]  00 03 00 40 00 00 13 01
  can0  141   [8]  84 26 A3 29 00 80 BF 00
  can0  142   [8]  84 26 00 00 00 00 00 00
  can0  144   [8]  C0 00 00 16 AF A4 A0 00
  can0  152   [8]  F0 8C 00 00 00 00 08 8C
  can0  018   [8]  0E 43 70 08 00 00 00 E9
  can0  280   [8]  00 09 00 00 00 00 00 00
  can0  370   [8]  00 00 23 01 00 0F 00 00
  can0  0D0   [8]  AB F1 01 00 00 00 FF 02
  can0  140   [8]  00 0D 00 40 00 00 13 01
  can0  141   [8]  84 26 A3 29 00 80 BF 00
  can0  142   [8]  84 26 00 00 00 00 00 00
  can0  144   [8]  C0 00 00 16 AF A4 A0 00
  can0  152   [8]  F0 DC 00 00 00 00 08 8C
  can0  018   [8]  0E 43 70 0C 00 00 00 ED
  can0  280   [8]  00 0E 00 00 00 00 00 00
  can0  0D0   [8]  AB F1 00 00 00 00 FF 02
  can0  0D1   [4]  00 00 00 00
  can0  140   [8]  00 07 00 40 00 00 13 01
  can0  141   [8]  84 26 A3 29 00 80 BF 00
  can0  142   [8]  84 26 00 00 00 00 00 00
  can0  144   [8]  C0 00 00 16 AF A4 A0 00
  can0  152   [8]  F0 2C 00 00 00 00 08 8C
  can0  282   [8]  EE 10 FA 80 80 01 21 00
  can0  018   [8]  0E 43 70 00 00 00 00 E1
  can0  280   [8]  00 03 00 00 00 00 00 00
  can0  0D0   [8]  AB F1 00 00 00 00 00 02
  can0  140   [8]  00 01 00 40 00 00 13 01
  can0  141   [8]  84 26 A3 29 00 80 BF 00
  can0  142   [8]  84 26 00 00 00 00 00 00
  can0  144   [8]  C0 00 00 16 AF A4 A0 00
  can0  152   [8]  F0 7C 00 00 00 00 08 8C
  can0  018   [8]  0E 43 70 04 00 00 00 E5
  can0  280   [8]  00 08 00 00 00 00 00 00
  can0  0D0   [8]  AB F1 00 00 00 00 FF 02
  can0  0D1   [4]  00 00 00 00
  can0  140   [8]  00 0B 00 40 00 00 13 01
  can0  141   [8]  84 26 A3 29 00 80 BF 00
  can0  142   [8]  84 26 00 00 00 00 00 00
  can0  144   [8]  C0 00 00 16 AF A4 A0 00
  can0  152   [8]  F0 CC 00 00 00 00 08 8C
  can0  3D1   [8]  8F 10 00 00 00 00 00 00
  can0  018   [8]  0E 43 70 08 00 00 00 E9
  can0  280   [8]  00 0D 00 00 00 00 00 00
  can0  0D0   [8]  AB F1 01 00 00 00 FF 02
  can0  140   [8]  00 05 00 40 00 00 13 01
  can0  141   [8]  84 26 A3 29 00 80 BF 00
  can0  142   [8]  84 26 00 00 00 00 00 00
  can0  144   [8]  C0 00 00 16 AF A4 A0 00
  can0  152   [8]  F0 1C 00 00 00 00 08 8C
  can0  282   [8]  EE 60 FA 80 80 01 21 00
  can0  018   [8]  0E 43 70 0C 00 00 00 ED
  can0  280   [8]  00 02 00 00 00 00 00 00
  can0  0D0   [8]  AB F1 01 00 00 00 FF 02
  can0  140   [8]  00 0F 00 40 00 00 13 01
  can0  141   [8]  84 26 A3 29 00 80 BF 00
  can0  142   [8]  84 26 00 00 00 00 00 00
  can0  144   [8]  C0 00 00 16 AF A4 A0 00
  can0  152   [8]  F0 6C 00 00 00 00 08 8C
  can0  018   [8]  0E 43 70 00 00 00 00 E1
  can0  280   [8]  00 07 00 00 00 00 00 00
  can0  0D0   [8]  AB F1 00 00 00 00 FF 02
  can0  0D1   [4]  00 00 00 00
  can0  140   [8]  00 09 00 40 00 00 13 01
  can0  141   [8]  84 26 A3 29 00 80 BF 00
  can0  142   [8]  84 26 00 00 00 00 00 00
  can0  144   [8]  C0 00 00 16 AF A4 A0 00
  can0  152   [8]  F0 BC 00 00 00 00 08 8C
  can0  018   [8]  0E 43 70 04 00 00 00 E5
  can0  280   [8]  00 0C 00 00 00 00 00 00
  can0  0D0   [8]  AB F1 00 00 00 00 FF 02
  can0  0D1   [4]  00 00 00 00
  can0  140   [8]  00 03 00 40 00 00 13 01
  can0  141   [8]  84 26 A3 29 00 80 BF 00
  can0  142   [8]  84 26 00 00 00 00 00 00
  can0  144   [8]  C0 00 00 16 AF A4 A0 00
  can0  152   [8]  F0 0C 00 00 00 00 08 8C
  can0  282   [8]  EE B0 FA 80 80 01 21 00
  can0  018   [8]  0E 43 70 08 00 00 00 E9
  can0  280   [8]  00 01 00 00 00 00 00 00
  can0  0D0   [8]  AB F1 00 00 00 00 FF 02
  can0  140   [8]  26 0D 00 00 1E 1E 15 01
  can0  141   [8]  0D 29 A3 29 00 00 BF 00
  can0  142   [8]  A3 29 02 00 00 00 00 00
  can0  144   [8]  C0 00 00 16 AF A4 A0 00
  can0  152   [8]  F0 5C 00 00 00 00 08 8C
  can0  018   [8]  0E 43 70 0C 00 00 00 ED
  can0  280   [8]  00 06 00 00 00 00 00 00
  can0  0D0   [8]  AB F1 00 00 00 00 00 02
  can0  0D1   [4]  00 00 00 00
  can0  140   [8]  98 07 00 00 8C 8C 69 00
  can0  141   [8]  CF 2B A3 29 00 00 BF 00
  can0  142   [8]  A3 29 5D 00 00 00 00 00
  can0  144   [8]  C0 00 00 16 AF A4 A0 00
  can0  152   [8]  F0 AC 00 00 00 00 08 8C
  can0  018   [8]  0E 43 70 00 00 00 00 E1
  can0  3D1   [8]  91 10 00 00 00 00 00 00
  can0  280   [8]  00 0B 00 00 00 00 00 00
  can0  0D0   [8]  AB F1 00 00 00 00 FF 02
  can0  140   [8]  FF 01 00 00 FF FF F8 00
  can0  141   [8]  57 2C A3 29 00 00 BF 00
  can0  142   [8]  A3 29 F8 00 00 00 00 00
  can0  144   [8]  C0 00 00 16 AF A4 A0 00
  can0  152   [8]  F0 FC 00 00 00 00 08 8C
  can0  442   [8]  4D 02 00 00 00 00 00 00
  can0  282   [8]  EE 00 FA 80 80 01 21 00
  can0  018   [8]  0E 43 70 04 00 00 00 E5
  can0  280   [8]  00 00 00 00 00 00 00 00
  can0  140   [8]  FF 0B 00 00 FF FF FF 00
  can0  141   [8]  56 2C A3 29 00 00 BF 00
  can0  142   [8]  A3 29 FF 00 00 00 00 00
  can0  144   [8]  C0 00 00 16 AF A4 A0 00
  can0  152   [8]  F0 4C 00 00 00 00 08 8C
  can0  44D   [8]  6C 02 00 00 00 00 00 00
  can0  018   [8]  0E 43 70 08 00 00 00 E9
  can0  280   [8]  00 05 00 00 00 00 00 00
  can0  0D0   [8]  AB F1 00 00 00 00 FF 02
  can0  140   [8]  FF 05 00 00 FF FF FF 00
  can0  141   [8]  57 2C A3 29 00 00 BF 00
  can0  142   [8]  A3 29 FF 00 00 00 00 00
  can0  144   [8]  C0 00 00 16 AF A4 A0 00
  can0  152   [8]  F0 9C 00 00 00 00 08 8C
  can0  018   [8]  0E 43 70 0C 00 00 00 ED
  can0  280   [8]  00 0A 00 00 00 00 00 00
  can0  0D0   [8]  AB F1 00 00 00 00 FF 02
  can0  0D1   [4]  00 00 00 00
  can0  140   [8]  FF 0F 00 00 FF FF FF 00
  can0  141   [8]  57 2C A3 29 00 00 BF 00
  can0  142   [8]  A3 29 FF 00 00 00 00 00
  can0  144   [8]  C0 00 00 16 AF A4 A0 00
  can0  152   [8]  F0 EC 00 00 00 00 08 8C
  can0  282   [8]  EE 50 FA 80 80 01 21 00
  can0  018   [8]  0E 43 70 00 00 00 00 E1
  can0  280   [8]  00 0F 00 00 00 00 00 00
  can0  0D0   [8]  AB F1 00 00 00 00 FF 02
  can0  140   [8]  FF 09 00 00 FF FF FF 00
  can0  141   [8]  57 2C A3 29 00 00 BF 00
  can0  142   [8]  A3 29 FF 00 00 00 00 00
  can0  144   [8]  C0 00 00 16 AF A4 A0 00
  can0  152   [8]  F0 3C 00 00 00 00 08 8C
  can0  018   [8]  0E 43 70 04 00 00 00 E5
  can0  280   [8]  00 04 00 00 00 00 00 00
  can0  0D0   [8]  AB F1 00 00 00 00 FF 02
  can0  0D1   [4]  00 00 00 00
  can0  140   [8]  FF 03 00 00 FF FF FF 00
  can0  141   [8]  56 2C A3 29 00 00 BF 00
  can0  142   [8]  A3 29 FF 00 00 00 00 00
  can0  144   [8]  C0 00 00 16 AF A4 A0 00
  can0  152   [8]  F0 8C 00 00 00 00 08 8C
  can0  018   [8]  0E 43 70 08 00 00 00 E9
  can0  3D1   [8]  8F 10 00 00 00 00 00 00
  can0  280   [8]  00 09 00 00 00 00 00 00
  can0  0D0   [8]  AB F1 01 00 00 00 FF 02
  can0  140   [8]  FF 0D 00 00 FF FF FF 00
  can0  141   [8]  56 2C A3 29 00 00 BF 00
  can0  142   [8]  A3 29 FF 00 00 00 00 00
  can0  144   [8]  C0 00 00 16 AF A4 A0 00
  can0  152   [8]  F0 DC 00 00 00 00 08 8C
  can0  282   [8]  EE A0 FA 80 80 01 21 00
  can0  018   [8]  0E 43 70 0C 00 00 00 ED
  can0  280   [8]  00 0E 00 00 00 00 00 00
  can0  0D0   [8]  AB F1 00 00 00 00 00 02
  can0  140   [8]  FF 07 00 00 FF FF FF 00
  can0  141   [8]  56 2C A3 29 00 00 BF 00
  can0  142   [8]  A3 29 FF 00 00 00 00 00
  can0  144   [8]  C0 00 00 16 AF A4 A0 00
  can0  152   [8]  F0 2C 00 00 00 00 08 8C
  can0  018   [8]  0E 43 70 00 00 00 00 E1
  can0  280   [8]  00 03 00 00 00 00 00 00
  can0  0D0   [8]  AB F1 00 00 00 00 FF 02
  can0  0D1   [4]  00 00 00 00
  can0  140   [8]  FF 01 00 00 FF FF FF 00
  can0  141   [8]  57 2C A3 29 00 00 BF 00
  can0  142   [8]  A3 29 FF 00 00 00 00 00
  can0  144   [8]  C0 00 00 16 AF A4 A0 00
  can0  152   [8]  F0 7C 00 00 00 00 08 8C
  can0  018   [8]  0E 43 70 04 00 00 00 E5
  can0  280   [8]  00 08 00 00 00 00 00 00
  can0  0D0   [8]  AB F1 01 00 00 00 FF 02
  can0  0D1   [4]  00 00 00 00
  can0  140   [8]  FF 0B 00 00 FF FF FF 00
  can0  141   [8]  57 2C A3 29 00 00 BF 00
  can0  142   [8]  A3 29 FF 00 00 00 00 00
  can0  144   [8]  C0 00 00 16 AF A4 A0 00
  can0  152   [8]  F0 CC 00 00 00 00 08 8C
  can0  282   [8]  EE F0 FA 80 80 01 21 00
  can0  018   [8]  0E 43 70 08 00 00 00 E9
  can0  280   [8]  00 0D 00 00 00 00 00 00
  can0  0D0   [8]  AB F1 01 00 00 00 FF 02
  can0  140   [8]  6D 05 00 00 6D 6D CC 00
  can0  141   [8]  CE 2B A3 29 00 00 BF 00
  can0  142   [8]  A3 29 C7 00 00 00 00 00
  can0  144   [8]  C0 00 00 16 AF A4 A0 00
  can0  152   [8]  F0 1C 00 00 00 00 08 8C
  can0  018   [8]  0E 43 70 0C 00 00 00 ED
  can0  280   [8]  00 02 00 00 00 00 00 00
  can0  0D0   [8]  AB F1 00 00 00 00 FF 02
  can0  0D1   [4]  00 00 00 00
  can0  140   [8]  00 0F 00 00 00 00 2A 00
  can0  141   [8]  10 27 A3 29 00 80 BF 00
  can0  142   [8]  A3 29 19 00 00 00 00 00
  can0  144   [8]  C0 00 00 16 AF A4 A0 00
  can0  152   [8]  F0 6C 00 00 00 00 08 8C
  can0  018   [8]  0E 43 70 00 00 00 00 E1
  can0  3D1   [8]  8F 10 00 00 00 00 00 00
  can0  280   [8]  00 07 00 00 00 00 00 00
  can0  0D0   [8]  AB F1 01 00 00 00 FF 02
  can0  140   [8]  00 09 00 40 00 00 15 01
  can0  141   [8]  84 26 A3 29 00 80 BF 00
  can0  142   [8]  84 26 02 00 00 00 00 00
  can0  144   [8]  C0 00 00 16 AF A4 A0 00
  can0  152   [8]  F0 BC 00 00 00 00 08 8C
  can0  282   [8]  EE 40 FA 80 80 01 21 00
  can0  018   [8]  0E 43 70 04 00 00 00 E5
  can0  280   [8]  00 0C 00 00 00 00 00 00
  can0  0D0   [8]  AB F1 00 00 00 00 FF 02
  can0  140   [8]  00 03 00 40 00 00 13 01
  can0  141   [8]  84 26 A3 29 00 80 BF 00
  can0  142   [8]  84 26 00 00 00 00 00 00
  can0  144   [8]  C0 00 00 16 AF A4 A0 00
  can0  152   [8]  F0 0C 00 00 00 00 08 8C
  can0  018   [8]  0E 43 70 08 00 00 00 E9
  can0  280   [8]  00 01 00 00 00 00 00 00
  can0  0D0   [8]  AB F1 00 00 00 00 FF 02
  can0  0D1   [4]  00 00 00 00
  can0  140   [8]  00 0D 00 40 00 00 13 01
  can0  141   [8]  84 26 A3 29 00 80 BF 00
  can0  142   [8]  84 26 00 00 00 00 00 00
  can0  144   [8]  C0 00 00 16 AF A4 A0 00
  can0  152   [8]  F0 5C 00 00 00 00 08 8C
  can0  018   [8]  0E 43 70 0C 00 00 00 ED
  can0  280   [8]  00 06 00 00 00 00 00 00
  can0  0D0   [8]  AB F1 00 00 00 00 FF 02
  can0  0D1   [4]  00 00 00 00
  can0  140   [8]  00 07 00 40 00 00 13 01
  can0  141   [8]  84 26 A3 29 00 80 BF 00
  can0  142   [8]  84 26 00 00 00 00 00 00
  can0  144   [8]  C0 00 00 16 AF A4 A0 00
  can0  152   [8]  F0 AC 00 00 00 00 08 8C
  can0  282   [8]  EE 90 FA 80 80 01 21 00
  can0  018   [8]  0E 43 70 00 00 00 00 E1
  can0  280   [8]  00 0B 00 00 00 00 00 00
  can0  0D0   [8]  AB F1 FF FF 00 00 FF 02
  can0  140   [8]  00 01 00 40 00 00 13 01
  can0  141   [8]  84 26 A3 29 00 80 BF 00
  can0  142   [8]  84 26 00 00 00 00 00 00
  can0  144   [8]  C0 00 00 16 AF A4 A0 00
  can0  152   [8]  F0 FC 00 00 00 00 08 8C
  can0  018   [8]  0E 43 70 04 00 00 00 E5
  can0  280   [8]  00 00 00 00 00 00 00 00
  can0  0D0   [8]  AB F1 00 00 00 00 FF 02
  can0  0D1   [4]  00 00 00 00
  can0  140   [8]  00 0B 00 40 00 00 13 01
  can0  141   [8]  84 26 A3 29 00 80 BF 00
  can0  142   [8]  84 26 00 00 00 00 00 00
  can0  144   [8]  C0 00 00 16 AF A4 A0 00
  can0  152   [8]  F0 4C 00 00 00 00 08 8C
  can0  018   [8]  0E 43 70 08 00 00 00 E9
  can0  3D1   [8]  8F 10 00 00 00 00 00 00
  can0  280   [8]  00 05 00 00 00 00 00 00
  can0  0D0   [8]  AB F1 00 00 00 00 FF 02
  can0  140   [8]  00 05 00 40 00 00 13 01
  can0  141   [8]  84 26 A3 29 00 80 BF 00
  can0  142   [8]  84 26 00 00 00 00 00 00
  can0  144   [8]  C0 00 00 16 AF A4 A0 00
  can0  152   [8]  F0 9C 00 00 00 00 08 8C
  can0  018   [8]  0E 43 70 0C 00 00 00 ED
  can0  282   [8]  EE E0 FA 80 80 01 21 00
  can0  280   [8]  00 0A 00 00 00 00 00 00
  can0  0D0   [8]  AB F1 00 00 00 00 FF 02
  can0  140   [8]  00 0F 00 40 00 00 13 01
  can0  141   [8]  84 26 A3 29 00 80 BF 00
  can0  142   [8]  84 26 00 00 00 00 00 00
  can0  144   [8]  C0 00 00 16 AF A4 A0 00
  can0  152   [8]  F0 EC 00 00 00 00 08 8C
  can0  018   [8]  0E 43 70 00 00 00 00 E1
  can0  280   [8]  00 0F 00 00 00 00 00 00
  can0  0D0   [8]  AB F1 00 00 00 00 FF 02
  can0  0D1   [4]  00 00 00 00
  can0  140   [8]  4E 09 00 00 44 44 2A 00
  can0  141   [8]  AC 2B A3 29 00 00 BF 00
  can0  142   [8]  A3 29 19 00 00 00 00 00
  can0  144   [8]  C0 00 00 16 AF A4 A0 00
  can0  152   [8]  F0 3C 00 00 00 00 08 8C
  can0  018   [8]  0E 43 70 04 00 00 00 E5
  can0  280   [8]  00 04 00 00 00 00 00 00
  can0  0D0   [8]  AB F1 00 00 00 00 FF 02
  can0  0D1   [4]  00 00 00 00
  can0  140   [8]  D2 03 00 00 C9 C9 B2 00
  can0  141   [8]  F9 2B A3 29 00 00 BF 00
  can0  142   [8]  A3 29 AB 00 00 00 00 00
  can0  144   [8]  C0 00 00 16 AF A4 A0 00
  can0  152   [8]  F0 8C 00 00 00 00 08 8C
  can0  018   [8]  0E 43 70 08 00 00 00 E9
  can0  282   [8]  EE 30 FA 80 80 01 21 00
  can0  46C   [8]  40 02 00 00 00 00 00 00
  can0  280   [8]  00 09 00 00 00 00 00 00
  can0  140   [8]  FF 0D 00 00 FF FF FE 00
  can0  141   [8]  56 2C A3 29 00 00 BF 00
  can0  142   [8]  A3 29 FE 00 00 00 00 00
  can0  144   [8]  C0 00 00 16 AF A4 A0 00
  can0  440   [8]  42 02 00 00 00 00 00 00
  can0  018   [8]  0E 43 70 0C 00 00 00 ED
  can0  4C8   [8]  09 00 00 00 00 00 00 00
  can0  152   [8]  F0 DC 00 00 00 00 08 8C
  can0  280   [8]  00 0E 00 00 00 00 00 00
  can0  140   [8]  FF 07 00 00 FF FF FF 00
  can0  141   [8]  57 2C A3 29 00 00 BF 00
  can0  142   [8]  A3 29 FF 00 00 00 00 00
  can0  144   [8]  C0 00 00 16 AF A4 A0 00
  can0  152   [8]  F0 2C 00 00 00 00 08 8C
  can0  018   [8]  0E 43 70 00 00 00 00 E1
  can0  3D1   [8]  91 10 00 00 00 00 00 00
  can0  280   [8]  00 03 00 00 00 00 00 00
  can0  0D0   [8]  AB F1 01 00 00 00 FF 02
  can0  140   [8]  FF 01 00 00 FF FF FF 00
  can0  141   [8]  56 2C A3 29 00 00 BF 00
  can0  142   [8]  A3 29 FF 00 00 00 00 00
  can0  144   [8]  C0 00 00 16 AF A4 A0 00
  can0  152   [8]  F0 7C 00 00 00 00 08 8C
  can0  018   [8]  0E 43 70 04 00 00 00 E5
  can0  282   [8]  EE 80 FA 80 80 01 21 00
  can0  280   [8]  00 08 00 00 00 00 00 00
  can0  0D0   [8]  AB F1 01 00 00 00 FF 02
  can0  140   [8]  FF 0B 00 00 FF FF FF 00
  can0  141   [8]  56 2C A3 29 00 00 BF 00
  can0  142   [8]  A3 29 FF 00 00 00 00 00
  can0  144   [8]  C0 00 00 16 AF A4 A0 00
  can0  152   [8]  F0 CC 00 00 00 00 08 8C
  can0  018   [8]  0E 43 70 08 00 00 00 E9
  can0  280   [8]  00 0D 00 00 00 00 00 00
  can0  0D0   [8]  AB F1 00 00 00 00 FF 02
  can0  0D1   [4]  00 00 00 00
  can0  140   [8]  FF 05 00 00 FF FF FF 00
  can0  141   [8]  57 2C A3 29 00 00 BF 00
  can0  142   [8]  A3 29 FF 00 00 00 00 00
  can0  144   [8]  C0 00 00 16 AF A4 A0 00
  can0  152   [8]  F0 1C 00 00 00 00 08 8C
  can0  018   [8]  0E 43 70 0C 00 00 00 ED
  can0  280   [8]  00 02 00 00 00 00 00 00
  can0  0D0   [8]  AB F1 00 00 00 00 00 02
  can0  0D1   [4]  00 00 00 00
  can0  370   [8]  00 00 23 01 00 0A 00 00
  can0  140   [8]  FF 0F 00 00 FF FF FF 00
  can0  141   [8]  56 2C A3 29 00 00 BF 00
  can0  142   [8]  A3 29 FF 00 00 00 00 00
  can0  144   [8]  C0 00 00 16 AF A4 A0 00
  can0  152   [8]  F0 6C 00 00 00 00 08 8C
  can0  018   [8]  0E 43 70 00 00 00 00 E1
  can0  282   [8]  EE D0 FA 80 80 01 21 00
  can0  280   [8]  00 07 00 00 00 00 00 00
  can0  140   [8]  FF 09 00 00 FF FF FF 00
  can0  141   [8]  57 2C A3 29 00 00 BF 00
  can0  142   [8]  A3 29 FF 00 00 00 00 00
  can0  144   [8]  C0 00 00 16 AF A4 A0 00
  can0  152   [8]  F0 BC 00 00 00 00 08 8C
  can0  370   [8]  00 00 23 01 00 0C 00 00
  can0  018   [8]  0E 43 70 04 00 00 00 E5
  can0  280   [8]  00 0C 00 00 00 00 00 00
  can0  0D0   [8]  AB F1 01 00 00 00 FF 02
  can0  140   [8]  FF 03 00 00 FF FF FF 00
  can0  141   [8]  56 2C A3 29 00 00 BF 00
  can0  142   [8]  A3 29 FF 00 00 00 00 00
  can0  144   [8]  C0 00 00 16 AF A4 A0 00
  can0  152   [8]  F0 0C 00 00 00 00 08 8C
  can0  370   [8]  00 00 23 01 00 0E 00 00
  can0  018   [8]  0E 43 70 08 00 00 00 E9
  can0  3D1   [8]  8F 10 00 00 00 00 00 00
  can0  280   [8]  00 01 00 00 00 00 00 00
  can0  140   [8]  FF 0D 00 00 FF FF FF 00
  can0  141   [8]  56 2C A3 29 00 00 BF 00
  can0  142   [8]  A3 29 FF 00 00 00 00 00
  can0  144   [8]  C0 00 00 16 AF A4 A0 00
  can0  152   [8]  F0 5C 00 00 00 00 08 8C
  can0  370   [8]  00 00 23 01 00 00 00 00
  can0  018   [8]  0E 43 70 0C 00 00 00 ED
  can0  282   [8]  EE 20 FA 80 80 01 21 00
  can0  280   [8]  00 06 00 00 00 00 00 00
  can0  140   [8]  5E 07 00 00 5E 5E A5 00
  can0  141   [8]  BE 2B A3 29 00 00 BF 00
  can0  142   [8]  A3 29 9E 00 00 00 00 00
  can0  144   [8]  C0 00 00 16 AF A4 A0 00
  can0  152   [8]  F0 AC 00 00 00 00 08 8C
  can0  018   [8]  0E 43 70 00 00 00 00 E1
  can0  370   [8]  00 00 23 01 00 02 00 00
  can0  280   [8]  00 0B 00 00 00 00 00 00
  can0  0D0   [8]  AB F1 01 00 00 00 FF 02
  can0  140   [8]  00 01 00 00 00 00 25 00
  can0  141   [8]  10 27 A3 29 00 80 BF 00
  can0  142   [8]  A3 29 14 00 00 00 00 00
  can0  144   [8]  C0 00 00 16 AF A4 A0 00
  can0  152   [8]  F0 FC 00 00 00 00 08 8C
  can0  018   [8]  0E 43 70 04 00 00 00 E5
  can0  370   [8]  00 00 23 01 00 04 00 00
  can0  280   [8]  00 00 00 00 00 00 00 00
  can0  0D0   [8]  AB F1 00 00 00 00 FF 02
  can0  140   [8]  00 0B 00 40 00 00 15 01
  can0  141   [8]  84 26 A3 29 00 80 BF 00
  can0  142   [8]  84 26 02 00 00 00 00 00
  can0  144   [8]  C0 00 00 16 AF A4 A0 00
  can0  152   [8]  F0 4C 00 00 00 00 08 8C
  can0  018   [8]  0E 43 70 08 00 00 00 E9
  can0  282   [8]  EE 70 FA 80 80 01 21 00
  can0  370   [8]  00 00 23 01 00 06 00 00
  can0  280   [8]  00 05 00 00 00 00 00 00
  can0  140   [8]  00 05 00 40 00 00 13 01
  can0  141   [8]  84 26 A3 29 00 80 BF 00
  can0  142   [8]  84 26 00 00 00 00 00 00
  can0  144   [8]  C0 00 00 16 AF A4 A0 00
  can0  152   [8]  F0 9C 00 00 00 00 08 8C
  can0  018   [8]  0E 43 70 0C 00 00 00 ED
  can0  370   [8]  00 00 23 01 00 08 00 00
  can0  280   [8]  00 0A 00 00 00 00 00 00
  can0  0D0   [8]  AB F1 01 00 00 00 FF 02
  can0  140   [8]  00 0F 00 40 00 00 13 01
  can0  141   [8]  84 26 A3 29 00 80 BF 00
  can0  142   [8]  84 26 00 00 00 00 00 00
  can0  144   [8]  C0 00 00 16 AF A4 A0 00
  can0  152   [8]  F0 EC 00 00 00 00 08 8C
  can0  018   [8]  0E 43 70 00 00 00 00 E1
  can0  3D1   [8]  91 10 00 00 00 00 00 00
  can0  280   [8]  00 0F 00 00 00 00 00 00
  can0  370   [8]  00 00 23 01 00 0A 00 00
  can0  140   [8]  00 09 00 40 00 00 13 01
  can0  141   [8]  84 26 A3 29 00 80 BF 00
  can0  142   [8]  84 26 00 00 00 00 00 00
  can0  144   [8]  C0 00 00 16 AF A4 A0 00
  can0  152   [8]  F0 3C 00 00 00 00 08 8C
  can0  018   [8]  0E 43 70 04 00 00 00 E5
  can0  282   [8]  EE C0 FA 80 80 01 21 00
  can0  280   [8]  00 04 00 00 00 00 00 00
  can0  0D0   [8]  AB F1 01 00 00 00 FF 02
  can0  140   [8]  00 03 00 40 00 00 13 01
  can0  141   [8]  84 26 A3 29 00 80 BF 00
  can0  142   [8]  84 26 00 00 00 00 00 00
  can0  144   [8]  C0 00 00 16 AF A4 A0 00
  can0  152   [8]  F0 8C 00 00 00 00 08 8C
  can0  018   [8]  0E 43 70 08 00 00 00 E9
  can0  280   [8]  00 09 00 00 00 00 00 00
  can0  0D0   [8]  AB F1 01 00 00 00 FF 02
  can0  0D1   [4]  00 00 00 00
  can0  140   [8]  00 0D 00 40 00 00 13 01
  can0  141   [8]  84 26 A3 29 00 80 BF 00
  can0  142   [8]  84 26 00 00 00 00 00 00
  can0  144   [8]  C0 00 00 16 AF A4 A0 00
  can0  152   [8]  F0 DC 00 00 00 00 08 8C
  can0  018   [8]  0E 43 70 0C 00 00 00 ED
  can0  280   [8]  00 0E 00 00 00 00 00 00
  can0  0D0   [8]  AB F1 00 00 00 00 FF 02
  can0  0D1   [4]  00 00 00 00
  can0  140   [8]  00 07 00 40 00 00 13 01
  can0  141   [8]  84 26 A3 29 00 80 BF 00
  can0  142   [8]  84 26 00 00 00 00 00 00
  can0  144   [8]  C0 00 00 16 AF A4 A0 00
  can0  152   [8]  F0 2C 00 00 00 00 08 8C
  can0  018   [8]  0E 43 70 00 00 00 00 E1
  can0  282   [8]  EE 10 FA 80 80 01 21 00
  can0  280   [8]  00 03 00 00 00 00 00 00
  can0  0D0   [8]  AB F1 00 00 00 00 FF 02
  can0  140   [8]  00 01 00 40 00 00 13 01
  can0  141   [8]  84 26 A3 29 00 80 BF 00
  can0  142   [8]  84 26 00 00 00 00 00 00
  can0  144   [8]  C0 00 00 16 AF A4 A0 00
  can0  152   [8]  F0 7C 00 00 00 00 08 8C
  can0  018   [8]  0E 43 70 04 00 00 00 E5
  can0  46C   [8]  40 02 00 00 00 00 00 00
  can0  280   [8]  00 08 00 00 00 00 00 00
  can0  0D0   [8]  AB F1 00 00 00 00 00 02
  can0  140   [8]  6A 0B 00 00 5A 5A 2C 00
  can0  141   [8]  B0 2B A3 29 00 00 BF 00
  can0  142   [8]  A3 29 1B 00 00 00 00 00
  can0  144   [8]  C0 00 00 16 AF A4 A0 00
  can0  440   [8]  42 02 00 00 00 00 00 00
  can0  018   [8]  0E 43 70 08 00 00 00 E9
  can0  152   [8]  F0 CC 00 00 00 00 08 8C
  can0  3D1   [8]  8F 10 00 00 00 00 00 00
  can0  280   [8]  00 0D 00 00 00 00 00 00
  can0  140   [8]  FF 05 00 00 FF FF ED 00
  can0  141   [8]  54 2C A3 29 00 00 BF 00
  can0  142   [8]  A3 29 EC 00 00 00 00 00
  can0  144   [8]  C0 00 00 16 AF A4 A0 00
  can0  152   [8]  F0 1C 00 00 00 00 08 8C
  can0  018   [8]  0E 43 70 0C 00 00 00 ED
  can0  282   [8]  EE 60 FA 80 80 01 21 00
  can0  280   [8]  00 02 00 00 00 00 00 00
  can0  0D0   [8]  AB F1 00 00 00 00 FF 02
  can0  140   [8]  FF 0F 00 00 FF FF FF 00
  can0  141   [8]  57 2C A3 29 00 00 BF 00
  can0  142   [8]  A3 29 FF 00 00 00 00 00
  can0  144   [8]  C0 00 00 16 AF A4 A0 00
  can0  152   [8]  F0 6C 00 00 00 00 08 8C
  can0  018   [8]  0E 43 70 00 00 00 00 E1
  can0  280   [8]  00 07 00 00 00 00 00 00
  can0  0D0   [8]  AB F1 00 00 00 00 00 02
  can0  0D1   [4]  00 00 00 00
  can0  140   [8]  FF 09 00 00 FF FF FF 00
  can0  141   [8]  57 2C A3 29 00 00 BF 00
  can0  142   [8]  A3 29 FF 00 00 00 00 00
  can0  144   [8]  C0 00 00 16 AF A4 A0 00
  can0  152   [8]  F0 BC 00 00 00 00 08 8C
  can0  018   [8]  0E 43 70 04 00 00 00 E5
  can0  280   [8]  00 0C 00 00 00 00 00 00
  can0  0D0   [8]  AB F1 00 00 00 00 00 02
  can0  0D1   [4]  00 00 00 00
  can0  140   [8]  FF 03 00 00 FF FF FF 00
  can0  141   [8]  56 2C A3 29 00 00 BF 00
  can0  142   [8]  A3 29 FF 00 00 00 00 00
  can0  144   [8]  C0 00 00 16 AF A4 A0 00
  can0  152   [8]  F0 0C 00 00 00 00 08 8C
  can0  018   [8]  0E 43 70 08 00 00 00 E9
  can0  282   [8]  EE B0 FA 80 80 01 21 00
  can0  280   [8]  00 01 00 00 00 00 00 00
  can0  0D0   [8]  AB F1 00 00 00 00 FF 02
  can0  140   [8]  FF 0D 00 00 FF FF FF 00
  can0  141   [8]  56 2C A3 29 00 00 BF 00
  can0  142   [8]  A3 29 FF 00 00 00 00 00
  can0  144   [8]  C0 00 00 16 AF A4 A0 00
  can0  152   [8]  F0 5C 00 00 00 00 08 8C
  can0  018   [8]  0E 43 70 0C 00 00 00 ED
  can0  280   [8]  00 06 00 00 00 00 00 00
  can0  0D0   [8]  AB F1 00 00 00 00 FF 02
  can0  0D1   [4]  00 00 00 00
  can0  140   [8]  FF 07 00 00 FF FF FF 00
  can0  141   [8]  57 2C A3 29 00 00 BF 00
  can0  142   [8]  A3 29 FF 00 00 00 00 00
  can0  144   [8]  C0 00 00 16 AF A4 A0 00
  can0  152   [8]  F0 AC 00 00 00 00 08 8C
  can0  018   [8]  0E 43 70 00 00 00 00 E1
  can0  3D1   [8]  8F 10 00 00 00 00 00 00
  can0  280   [8]  00 0B 00 00 00 00 00 00
  can0  0D0   [8]  AB F1 00 00 00 00 FF 02
  can0  140   [8]  FF 01 00 00 FF FF FF 00
  can0  141   [8]  57 2C A3 29 00 00 BF 00
  can0  142   [8]  A3 29 FF 00 00 00 00 00
  can0  144   [8]  C0 00 00 16 AF A4 A0 00
  can0  152   [8]  F0 FC 00 00 00 00 08 8C
  can0  018   [8]  0E 43 70 04 00 00 00 E5
  can0  282   [8]  EE 00 FA 80 80 01 21 00
  can0  280   [8]  00 00 00 00 00 00 00 00
  can0  0D0   [8]  AB F1 00 00 00 00 FF 02
  can0  140   [8]  FF 0B 00 00 FF FF FF 00
  can0  141   [8]  56 2C A3 29 00 00 BF 00
  can0  142   [8]  A3 29 FF 00 00 00 00 00
  can0  144   [8]  C0 00 00 16 AF A4 A0 00
  can0  152   [8]  F0 4C 00 00 00 00 08 8C
  can0  018   [8]  0E 43 70 08 00 00 00 E9
  can0  280   [8]  00 05 00 00 00 00 00 00
  can0  0D0   [8]  AB F1 01 00 00 00 FF 01
  can0  0D1   [4]  00 00 00 00
  can0  140   [8]  FF 05 00 00 FF FF FF 00
  can0  141   [8]  56 2C A3 29 00 00 BF 00
  can0  142   [8]  A3 29 FF 00 00 00 00 00
  can0  144   [8]  C0 00 00 16 AF A4 A0 00
  can0  152   [8]  F0 9C 00 00 00 00 08 8C
  can0  018   [8]  0E 43 70 0C 00 00 00 ED
  can0  280   [8]  00 0A 00 00 00 00 00 00
  can0  0D0   [8]  AB F1 00 00 00 00 FF 02
  can0  0D1   [4]  00 00 00 00
  can0  140   [8]  9F 0F 00 00 9F 9F EE 00
  can0  141   [8]  EE 2B A3 29 00 00 BF 00
  can0  142   [8]  A3 29 EC 00 00 00 00 00
  can0  144   [8]  C0 00 00 16 AF A4 A0 00
  can0  152   [8]  F0 EC 00 00 00 00 08 8C
  can0  018   [8]  0E 43 70 00 00 00 00 E1
  can0  282   [8]  EE 50 FA 80 80 01 21 00
  can0  280   [8]  00 0F 00 00 00 00 00 00
  can0  0D0   [8]  AB F1 01 00 00 00 FF 02
  can0  140   [8]  00 09 00 40 00 00 2F 00
  can0  141   [8]  84 26 A3 29 00 80 BF 00
  can0  142   [8]  84 26 1E 00 00 00 00 00
  can0  144   [8]  C0 00 00 16 AF A4 A0 00
  can0  152   [8]  F0 3C 00 00 00 00 08 8C
  can0  018   [8]  0E 43 70 04 00 00 00 E5
  can0  280   [8]  00 04 00 00 00 00 00 00
  can0  0D0   [8]  AB F1 00 00 00 00 FF 02
  can0  0D1   [4]  00 00 00 00
  can0  140   [8]  00 03 00 40 00 00 15 01
  can0  141   [8]  84 26 A3 29 00 80 BF 00
  can0  142   [8]  84 26 02 00 00 00 00 00
  can0  144   [8]  C0 00 00 16 AF A4 A0 00
  can0  152   [8]  F0 8C 00 00 00 00 08 8C
  can0  018   [8]  0E 43 70 08 00 00 00 E9
  can0  3D1   [8]  8F 10 00 00 00 00 00 00
  can0  280   [8]  00 09 00 00 00 00 00 00
  can0  0D0   [8]  AB F1 00 00 00 00 FF 02
  can0  140   [8]  00 0D 00 40 00 00 13 01
  can0  141   [8]  84 26 A3 29 00 80 BF 00
  can0  142   [8]  84 26 00 00 00 00 00 00
  can0  144   [8]  C0 00 00 16 AF A4 A0 00
  can0  152   [8]  F0 DC 00 00 00 00 08 8C
  can0  018   [8]  0E 43 70 0C 00 00 00 ED
  can0  282   [8]  EE A0 FA 80 80 01 21 00
  can0  280   [8]  00 0E 00 00 00 00 00 00
  can0  0D0   [8]  AB F1 00 00 00 00 FF 02
  can0  140   [8]  00 07 00 40 00 00 13 01
  can0  141   [8]  84 26 A3 29 00 80 BF 00
  can0  142   [8]  84 26 00 00 00 00 00 00
  can0  144   [8]  C0 00 00 16 AF A4 A0 00
  can0  152   [8]  F0 2C 00 00 00 00 08 8C
  can0  018   [8]  0E 43 70 00 00 00 00 E1
  can0  280   [8]  00 03 00 00 00 00 00 00
  can0  0D0   [8]  AB F1 00 00 00 00 FF 01
  can0  0D1   [4]  00 00 00 00
  can0  140   [8]  00 01 00 40 00 00 13 01
  can0  141   [8]  84 26 A3 29 00 80 BF 00
  can0  142   [8]  84 26 00 00 00 00 00 00
  can0  144   [8]  C0 00 00 16 AF A4 A0 00
  can0  152   [8]  F0 7C 00 00 00 00 08 8C
  can0  018   [8]  0E 43 70 04 00 00 00 E5
  can0  280   [8]  00 08 00 00 00 00 00 00
  can0  0D0   [8]  AB F1 00 00 00 00 FF 02
  can0  0D1   [4]  00 00 00 00
  can0  140   [8]  00 0B 00 40 00 00 13 01
  can0  141   [8]  84 26 A3 29 00 80 BF 00
  can0  142   [8]  84 26 00 00 00 00 00 00
  can0  144   [8]  C0 00 00 16 AF A4 A0 00
  can0  152   [8]  F0 CC 00 00 00 00 08 8C
  can0  018   [8]  0E 43 70 08 00 00 00 E9
  can0  282   [8]  EE F0 FA 80 80 01 21 00
  can0  280   [8]  00 0D 00 00 00 00 00 00
  can0  0D0   [8]  AB F1 00 00 00 00 FF 02
  can0  140   [8]  00 05 00 40 00 00 13 01
  can0  141   [8]  84 26 A3 29 00 80 BF 00
  can0  142   [8]  84 26 00 00 00 00 00 00
  can0  144   [8]  C0 00 00 16 AF A4 A0 00
  can0  152   [8]  F0 1C 00 00 00 00 08 8C
  can0  018   [8]  0E 43 70 0C 00 00 00 ED
  can0  280   [8]  00 02 00 00 00 00 00 00
  can0  0D0   [8]  AB F1 01 00 00 00 FF 02
  can0  0D1   [4]  00 00 00 00
  can0  140   [8]  00 0F 00 40 00 00 13 01
  can0  141   [8]  84 26 A3 29 00 80 BF 00
  can0  142   [8]  84 26 00 00 00 00 00 00
  can0  144   [8]  C0 00 00 16 AF A4 A0 00
  can0  152   [8]  F0 6C 00 00 00 00 08 8C
  can0  018   [8]  0E 43 70 00 00 00 00 E1
  can0  3D1   [8]  8F 10 00 00 00 00 00 00
  can0  280   [8]  00 07 00 00 00 00 00 00
  can0  0D0   [8]  AB F1 00 00 00 00 FF 02
  can0  140   [8]  0F 09 00 00 06 06 13 01
  can0  141   [8]  10 27 A3 29 00 00 BF 00
  can0  142   [8]  A3 29 00 00 00 00 00 00
  can0  144   [8]  C0 00 00 16 AF A4 A0 00
  can0  152   [8]  F0 BC 00 00 00 00 08 8C
  can0  018   [8]  0E 43 70 04 00 00 00 E5
  can0  282   [8]  EE 40 FA 80 80 01 21 00
  can0  280   [8]  00 0C 00 00 00 00 00 00
  can0  0D0   [8]  AB F1 01 00 00 00 00 02
  can0  140   [8]  AB 03 00 00 9C 9C 6E 00
  can0  141   [8]  D8 2B A3 29 00 00 BF 00
  can0  142   [8]  A3 29 62 00 00 00 00 00
  can0  144   [8]  C0 00 00 16 AF A4 A0 00
  can0  152   [8]  F0 0C 00 00 00 00 08 8C
  can0  018   [8]  0E 43 70 08 00 00 00 E9
  can0  442   [8]  4D 02 00 00 00 00 00 00
  can0  280   [8]  00 01 00 00 00 00 00 00
  can0  0D0   [8]  AB F1 00 00 00 00 00 02
  can0  140   [8]  FF 0D 00 00 FF FF FC 00
  can0  141   [8]  56 2C A3 29 00 00 BF 00
  can0  142   [8]  A3 29 FC 00 00 00 00 00
  can0  144   [8]  C0 00 00 16 AF A4 A0 00
  can0  152   [8]  F0 5C 00 00 00 00 08 8C
  can0  018   [8]  0E 43 70 0C 00 00 00 ED
  can0  44D   [8]  6C 02 00 00 00 00 00 00
  can0  280   [8]  00 06 00 00 00 00 00 00
  can0  0D0   [8]  AB F1 00 00 00 00 FF 02
  can0  140   [8]  FF 07 00 00 FF FF FF 00
  can0  141   [8]  56 2C A3 29 00 00 BF 00
  can0  142   [8]  A3 29 FF 00 00 00 00 00
  can0  144   [8]  C0 00 00 16 AF A4 A0 00
  can0  152   [8]  F0 AC 00 00 00 00 08 8C
  can0  018   [8]  0E 43 70 00 00 00 00 E1
  can0  282   [8]  EE 90 FA 80 80 01 21 00
  can0  280   [8]  00 0B 00 00 00 00 00 00
  can0  0D0   [8]  AB F1 00 00 00 00 FF 02
  can0  140   [8]  FF 01 00 00 FF FF FF 00
  can0  141   [8]  57 2C A3 29 00 00 BF 00
  can0  142   [8]  A3 29 FF 00 00 00 00 00
  can0  144   [8]  C0 00 00 16 AF A4 A0 00
  can0  152   [8]  F0 FC 00 00 00 00 08 8C
  can0  018   [8]  0E 43 70 04 00 00 00 E5
  can0  280   [8]  00 00 00 00 00 00 00 00
  can0  0D0   [8]  AB F1 01 00 00 00 FF 02
  can0  0D1   [4]  00 00 00 00
  can0  140   [8]  FF 0B 00 00 FF FF FF 00
  can0  141   [8]  57 2C A3 29 00 00 BF 00
  can0  142   [8]  A3 29 FF 00 00 00 00 00
  can0  144   [8]  C0 00 00 16 AF A4 A0 00
  can0  152   [8]  F0 4C 00 00 00 00 08 8C
  can0  018   [8]  0E 43 70 08 00 00 00 E9
  can0  3D1   [8]  91 10 00 00 00 00 00 00
  can0  280   [8]  00 05 00 00 00 00 00 00
  can0  0D0   [8]  AB F1 00 00 00 00 FF 02
  can0  140   [8]  FF 05 00 00 FF FF FF 00
  can0  141   [8]  57 2C A3 29 00 00 BF 00
  can0  142   [8]  A3 29 FF 00 00 00 00 00
  can0  144   [8]  C0 00 00 16 AF A4 A0 00
  can0  152   [8]  F0 9C 00 00 00 00 08 8C
  can0  018   [8]  0E 43 70 0C 00 00 00 ED
  can0  282   [8]  EE E0 FA 80 80 01 21 00
  can0  280   [8]  00 0A 00 00 00 00 00 00
  can0  0D0   [8]  AB F1 00 00 00 00 FF 02
  can0  140   [8]  FF 0F 00 00 FF FF FF 00
  can0  141   [8]  56 2C A3 29 00 00 BF 00
  can0  142   [8]  A3 29 FF 00 00 00 00 00
  can0  144   [8]  C0 00 00 16 AF A4 A0 00
  can0  152   [8]  F0 EC 00 00 00 00 08 8C
  can0  018   [8]  0E 43 70 00 00 00 00 E1
  can0  280   [8]  00 0F 00 00 00 00 00 00
  can0  0D0   [8]  AB F1 00 00 00 00 FF 02
  can0  0D1   [4]  00 00 00 00
  can0  140   [8]  FF 09 00 00 FF FF FF 00
  can0  141   [8]  56 2C A3 29 00 00 BF 00
  can0  142   [8]  A3 29 FF 00 00 00 00 00
  can0  144   [8]  C0 00 00 16 AF A4 A0 00
  can0  152   [8]  F0 3C 00 00 00 00 08 8C
  can0  018   [8]  0E 43 70 04 00 00 00 E5
  can0  280   [8]  00 04 00 00 00 00 00 00
  can0  0D0   [8]  AB F1 01 00 00 00 00 02
  can0  0D1   [4]  00 00 00 00
  can0  140   [8]  FF 03 00 00 FF FF FF 00
  can0  141   [8]  57 2C A3 29 00 00 BF 00
  can0  142   [8]  A3 29 FF 00 00 00 00 00
  can0  144   [8]  C0 00 00 16 AF A4 A0 00
  can0  152   [8]  F0 8C 00 00 00 00 08 8C
  can0  018   [8]  0E 43 70 08 00 00 00 E9
  can0  282   [8]  EE 30 FA 80 80 01 21 00
  can0  280   [8]  00 09 00 00 00 00 00 00
  can0  0D0   [8]  AB F1 00 00 00 00 FF 02
  can0  140   [8]  E5 0D 00 00 E5 E5 FF 00
  can0  141   [8]  36 2C A3 29 00 00 BF 00
  can0  142   [8]  A3 29 FF 00 00 00 00 00
  can0  144   [8]  C0 00 00 16 AF A4 A0 00
  can0  152   [8]  F0 DC 00 00 00 00 08 8C
  can0  018   [8]  0E 43 70 0C 00 00 00 ED
  can0  280   [8]  00 0E 00 00 00 00 00 00
  can0  0D0   [8]  AB F1 00 00 00 00 00 02
  can0  0D1   [4]  00 00 00 00
  can0  140   [8]  36 07 00 00 36 36 8D 00
  can0  141   [8]  B0 2B A3 29 00 00 BF 00
  can0  142   [8]  A3 29 84 00 00 00 00 00
  can0  144   [8]  C0 00 00 16 AF A4 A0 00
  can0  152   [8]  F0 2C 00 00 00 00 08 8C
  can0  018   [8]  0E 43 70 00 00 00 00 E1
  can0  3D1   [8]  91 10 00 00 00 00 00 00
  can0  280   [8]  00 03 00 00 00 00 00 00
  can0  0D0   [8]  AB F1 00 00 00 00 FF 02
  can0  140   [8]  00 01 00 40 00 00 16 00
  can0  141   [8]  84 26 A3 29 00 80 BF 00
  can0  142   [8]  84 26 04 00 00 00 00 00
  can0  144   [8]  C0 00 00 16 AF A4 A0 00
  can0  018   [8]  0E 43 70 04 00 00 00 E5
  can0  152   [8]  F0 7C 00 00 00 00 08 8C
  can0  282   [8]  EE 80 FA 80 80 01 21 00
  can0  280   [8]  00 08 00 00 00 00 00 00
  can0  0D0   [8]  AB F1 00 00 00 00 00 02
  can0  370   [8]  00 00 23 01 00 05 00 00
  can0  140   [8]  00 0B 00 40 00 00 14 01
  can0  141   [8]  84 26 A3 29 00 80 BF 00
  can0  142   [8]  84 26 02 00 00 00 00 00
  can0  144   [8]  C0 00 00 16 AF A4 A0 00
  can0  152   [8]  F0 CC 00 00 00 00 08 8C
  can0  018   [8]  0E 43 70 08 00 00 00 E9
  can0  280   [8]  00 0D 00 00 00 00 00 00
  can0  0D0   [8]  AB F1 00 00 00 00 FF 02
  can0  370   [8]  00 00 23 01 00 07 00 00
  can0  140   [8]  00 05 00 40 00 00 13 01
  can0  141   [8]  84 26 A3 29 00 80 BF 00
  can0  142   [8]  84 26 00 00 00 00 00 00
  can0  144   [8]  C0 00 00 16 AF A4 A0 00
  can0  018   [8]  0E 43 70 0C 00 00 00 ED
  can0  152   [8]  F0 1C 00 00 00 00 08 8C
  can0  280   [8]  00 02 00 00 00 00 00 00
  can0  0D0   [8]  AB F1 00 00 00 00 FF 02
  can0  140   [8]  00 0F 00 40 00 00 13 01
  can0  141   [8]  84 26 A3 29 00 80 BF 00
  can0  142   [8]  84 26 00 00 00 00 00 00
  can0  144   [8]  C0 00 00 16 AF A4 A0 00
  can0  370   [8]  00 00 23 01 00 09 00 00
  can0  018   [8]  0E 43 70 00 00 00 00 E1
  can0  152   [8]  F0 6C 00 00 00 00 08 8C
  can0  282   [8]  EE D0 FA 80 80 01 21 00
  can0  280   [8]  00 07 00 00 00 00 00 00
  can0  140   [8]  00 09 00 40 00 00 13 01
  can0  141   [8]  84 26 A3 29 00 80 BF 00
  can0  142   [8]  84 26 00 00 00 00 00 00
  can0  144   [8]  C0 00 00 16 AF A4 A0 00
  can0  018   [8]  0E 43 70 04 00 00 00 E5
  can0  152   [8]  F0 BC 00 00 00 00 08 8C
  can0  370   [8]  00 00 23 01 00 0B 00 00
  can0  280   [8]  00 0C 00 00 00 00 00 00
  can0  0D0   [8]  AB F1 01 00 00 00 FF 02
  can0  140   [8]  00 03 00 40 00 00 13 01
  can0  141   [8]  84 26 A3 29 00 80 BF 00
  can0  142   [8]  84 26 00 00 00 00 00 00
  can0  144   [8]  C0 00 00 16 AF A4 A0 00
  can0  018   [8]  0E 43 70 08 00 00 00 E9
  can0  152   [8]  F0 0C 00 00 00 00 08 8C
  can0  370   [8]  00 00 23 01 00 0D 00 00
  can0  3D1   [8]  8F 10 00 00 00 00 00 00
  can0  280   [8]  00 01 00 00 00 00 00 00
  can0  140   [8]  00 0D 00 40 00 00 13 01
  can0  141   [8]  84 26 A3 29 00 80 BF 00
  can0  142   [8]  84 26 00 00 00 00 00 00
  can0  144   [8]  C0 00 00 16 AF A4 A0 00
  can0  018   [8]  0E 43 70 0C 00 00 00 ED
  can0  152   [8]  F0 5C 00 00 00 00 08 8C
  can0  370   [8]  00 00 23 01 00 0F 00 00
  can0  282   [8]  EE 20 FA 80 80 01 21 00
  can0  280   [8]  00 06 00 00 00 00 00 00
  can0  140   [8]  00 07 00 40 00 00 13 01
  can0  141   [8]  84 26 A3 29 00 80 BF 00
  can0  142   [8]  84 26 00 00 00 00 00 00
  can0  144   [8]  C0 00 00 16 AF A4 A0 00
  can0  018   [8]  0E 43 70 00 00 00 00 E1
  can0  152   [8]  F0 AC 00 00 00 00 08 8C
  can0  370   [8]  00 00 23 01 00 01 00 00
  can0  280   [8]  00 0B 00 00 00 00 00 00
  can0  0D0   [8]  AB F1 00 00 00 00 FF 02
  can0  140   [8]  4C 01 00 00 43 43 2F 00
  can0  141   [8]  AC 2B A3 29 00 00 BF 00
  can0  142   [8]  A3 29 1F 00 00 00 00 00
  can0  144   [8]  C0 00 00 16 AF A4 A0 00
  can0  018   [8]  0E 43 70 04 00 00 00 E5
  can0  152   [8]  F0 FC 00 00 00 00 08 8C
  can0  370   [8]  00 00 23 01 00 03 00 00
  can0  280   [8]  00 00 00 00 00 00 00 00
  can0  0D0   [8]  AB F1 00 00 00 00 FF 02
  can0  140   [8]  C7 0B 00 00 BE BE A9 00
  can0  141   [8]  F2 2B A3 29 00 00 BF 00
  can0  142   [8]  A3 29 A2 00 00 00 00 00
  can0  144   [8]  C0 00 00 16 AF A4 A0 00
  can0  018   [8]  0E 43 70 08 00 00 00 E9
  can0  152   [8]  F0 4C 00 00 00 00 08 8C
  can0  282   [8]  EE 70 FA 80 80 01 21 00
  can0  370   [8]  00 00 23 01 00 05 00 00
  can0  280   [8]  00 05 00 00 00 00 00 00
  can0  156   [8]  00 00 00 00 00 00 00 00
  can0  140   [8]  FF 05 00 00 FF FF FE 00
  can0  141   [8]  57 2C A3 29 00 00 BF 00
  can0  142   [8]  A3 29 FE 00 00 00 00 00
  can0  018   [8]  0E 43 70 0C 00 00 00 ED
  can0  144   [8]  C0 00 00 16 AF A4 A0 00
  can0  152   [8]  F0 9C 00 00 00 00 08 8C
  can0  46C   [8]  40 02 00 00 00 00 00 00
  can0  280   [8]  00 0A 00 00 00 00 00 00
  can0  140   [8]  FF 0F 00 00 FF FF FF 00
  can0  141   [8]  56 2C A3 29 00 00 BF 00
  can0  142   [8]  A3 29 FF 00 00 00 00 00
  can0  018   [8]  0E 43 70 00 00 00 00 E1
  can0  144   [8]  C0 00 00 16 AF A4 A0 00
  can0  440   [8]  42 02 00 00 00 00 00 00
  can0  3D1   [8]  8F 10 00 00 00 00 00 00
  can0  152   [8]  F0 EC 00 00 00 00 08 8C
  can0  280   [8]  00 0F 00 00 00 00 00 00
  can0  140   [8]  FF 09 00 00 FF FF FF 00
  can0  141   [8]  56 2C A3 29 00 00 BF 00
  can0  142   [8]  A3 29 FF 00 00 00 00 00
  can0  018   [8]  0E 43 70 04 00 00 00 E5
  can0  144   [8]  C0 00 00 16 AF A4 A0 00
  can0  152   [8]  F0 3C 00 00 00 00 08 8C
  can0  282   [8]  EE C0 FA 80 80 01 21 00
  can0  280   [8]  00 04 00 00 00 00 00 00
  can0  0D0   [8]  AB F1 00 00 00 00 FF 02
  can0  140   [8]  FF 03 00 00 FF FF FF 00
  can0  141   [8]  56 2C A3 29 00 00 BF 00
  can0  142   [8]  A3 29 FF 00 00 00 00 00
  can0  018   [8]  0E 43 70 08 00 00 00 E9
  can0  144   [8]  C0 00 00 16 AF A4 A0 00
  can0  152   [8]  F0 8C 00 00 00 00 08 8C
  can0  280   [8]  00 09 00 00 00 00 00 00
  can0  0D0   [8]  AB F1 00 00 00 00 FF 02
  can0  0D1   [4]  00 00 00 00
  can0  140   [8]  FF 0D 00 00 FF FF FF 00
  can0  141   [8]  57 2C A3 29 00 00 BF 00
  can0  142   [8]  A3 29 FF 00 00 00 00 00
  can0  018   [8]  0E 43 70 0C 00 00 00 ED
  can0  144   [8]  C0 00 00 16 AF A4 A0 00
  can0  152   [8]  F0 DC 00 00 00 00 08 8C
  can0  280   [8]  00 0E 00 00 00 00 00 00
  can0  0D0   [8]  AB F1 01 00 00 00 FF 02
  can0  0D1   [4]  00 00 00 00
  can0  140   [8]  FF 07 00 00 FF FF FF 00
  can0  141   [8]  57 2C A3 29 00 00 BF 00
  can0  018   [8]  0E 43 70 00 00 00 00 E1
  can0  142   [8]  A3 29 FF 00 00 00 00 00
  can0  144   [8]  C0 00 00 16 AF A4 A0 00
  can0  152   [8]  F0 2C 00 00 00 00 08 8C
  can0  282   [8]  EE 10 FA 80 80 01 21 00
  can0  280   [8]  00 03 00 00 00 00 00 00
  can0  0D0   [8]  AB F1 00 00 00 00 FF 02
  can0  140   [8]  FF 01 00 00 FF FF FF 00
  can0  141   [8]  56 2C A3 29 00 00 BF 00
  can0  018   [8]  0E 43 70 04 00 00 00 E5
  can0  142   [8]  A3 29 FF 00 00 00 00 00
  can0  144   [8]  C0 00 00 16 AF A4 A0 00
  can0  152   [8]  F0 7C 00 00 00 00 08 8C
  can0  280   [8]  00 08 00 00 00 00 00 00
  can0  0D0   [8]  AB F1 00 00 00 00 FF 02
  can0  0D1   [4]  00 00 00 00
  can0  140   [8]  FF 0B 00 00 FF FF FF 00
  can0  141   [8]  56 2C A3 29 00 00 BF 00
  can0  018   [8]  0E 43 70 08 00 00 00 E9
  can0  142   [8]  A3 29 FF 00 00 00 00 00
  can0  144   [8]  C0 00 00 16 AF A4 A0 00
  can0  152   [8]  F0 CC 00 00 00 00 08 8C
  can0  3D1   [8]  8F 10 00 00 00 00 00 00
  can0  280   [8]  00 0D 00 00 00 00 00 00
  can0  0D0   [8]  AB F1 00 00 00 00 FF 02
  can0  140   [8]  FF 05 00 00 FF FF FF 00
  can0  141   [8]  57 2C A3 29 00 00 BF 00
  can0  018   [8]  0E 43 70 0C 00 00 00 ED
  can0  142   [8]  A3 29 FF 00 00 00 00 00
  can0  144   [8]  C0 00 00 16 AF A4 A0 00
  can0  152   [8]  F0 1C 00 00 00 00 08 8C
  can0  282   [8]  EE 60 FA 80 80 01 21 00
  can0  280   [8]  00 02 00 00 00 00 00 00
  can0  0D0   [8]  AB F1 00 00 00 00 FF 02
  can0  140   [8]  7F 0F 00 00 7F 7F D6 00
  can0  018   [8]  0E 43 70 00 00 00 00 E1
  can0  141   [8]  D9 2B A3 29 00 00 BF 00
  can0  142   [8]  A3 29 D3 00 00 00 00 00
  can0  144   [8]  C0 00 00 16 AF A4 A0 00
  can0  152   [8]  F0 6C 00 00 00 00 08 8C
  can0  280   [8]  00 07 00 00 00 00 00 00
  can0  0D0   [8]  AB F1 01 00 00 00 FF 02
  can0  0D1   [4]  00 00 00 00
  can0  140   [8]  00 09 00 40 00 00 24 00
  can0  018   [8]  0E 43 70 04 00 00 00 E5
  can0  141   [8]  84 26 A3 29 00 80 BF 00
  can0  142   [8]  84 26 13 00 00 00 00 00
  can0  144   [8]  C0 00 00 16 AF A4 A0 00
  can0  152   [8]  F0 BC 00 00 00 00 08 8C
  can0  280   [8]  00 0C 00 00 00 00 00 00
  can0  0D0   [8]  AB F1 00 00 00 00 FF 02
  can0  0D1   [4]  00 00 00 00
  can0  140   [8]  00 03 00 40 00 00 15 01
  can0  018   [8]  0E 43 70 08 00 00 00 E9
  can0  141   [8]  84 26 A3 29 00 80 BF 00
  can0  142   [8]  84 26 02 00 00 00 00 00
  can0  144   [8]  C0 00 00 16 AF A4 A0 00
  can0  152   [8]  F0 0C 00 00 00 00 08 8C
  can0  282   [8]  EE B0 FA 80 80 01 21 00
  can0  280   [8]  00 01 00 00 00 00 00 00
  can0  0D0   [8]  AB F1 01 00 00 00 FF 02
  can0  140   [8]  00 0D 00 40 00 00 13 01
  can0  018   [8]  0E 43 70 0C 00 00 00 ED
  can0  141   [8]  84 26 A3 29 00 80 BF 00
  can0  142   [8]  84 26 00 00 00 00 00 00
  can0  144   [8]  C0 00 00 16 AF A4 A0 00
  can0  152   [8]  F0 5C 00 00 00 00 08 8C
  can0  280   [8]  00 06 00 00 00 00 00 00
  can0  0D0   [8]  AB F1 00 00 00 00 FF 02
  can0  0D1   [4]  00 00 00 00
  can0  140   [8]  00 07 00 40 00 00 13 01
  can0  018   [8]  0E 43 70 00 00 00 00 E1
  can0  141   [8]  84 26 A3 29 00 80 BF 00
  can0  142   [8]  84 26 00 00 00 00 00 00
  can0  144   [8]  C0 00 00 16 AF A4 A0 00
  can0  152   [8]  F0 AC 00 00 00 00 08 8C
  can0  3D1   [8]  8F 10 00 00 00 00 00 00
  can0  280   [8]  00 0B 00 00 00 00 00 00
  can0  0D0   [8]  AB F1 01 00 00 00 FF 02
  can0  018   [8]  0E 43 70 04 00 00 00 E5
  can0  140   [8]  00 01 00 40 00 00 13 01
  can0  141   [8]  84 26 A3 29 00 80 BF 00
